
T0620 000:306 SEGGER J-Link V4.96d Log File (0000ms, 0271ms total)
T0620 000:306 DLL Compiled: Jan 29 2015 11:45:37 (0000ms, 0271ms total)
T0620 000:306 Logging started @ 2024-07-22 12:03 (0000ms, 0271ms total)
T0620 000:306 JLINK_SetWarnOutHandler(...) (0000ms, 0271ms total)
T0620 000:306 JLINK_OpenEx(...)
Firmware: J-Link ARM-OB STM32 compiled Aug 22 2012 19:52:04
Hardware: V7.00
S/N: 20090929
Feature(s): RDI,FlashDL,FlashBP,JFlash,GDBFull  returns O.K. (0264ms, 0535ms total)
T0620 000:570 JLINK_SetErrorOutHandler(...) (0000ms, 0535ms total)
T0620 000:570 JLINK_ExecCommand("ProjectFile = "D:\noval\Project\keilcode\THDetector\THDetector01\MDK-ARM\JLinkSettings.ini"", ...)Device "UNSPECIFIED" selected.  returns 0x00 (0002ms, 0537ms total)
T0620 000:574 JLINK_ExecCommand("Device = STM32G030K6Tx", ...)Device "UNSPECIFIED" selected.  returns 0x00 (0003ms, 0540ms total)
T0620 000:577 JLINK_ExecCommand("DisableConnectionTimeout", ...)  returns 0x01 (0000ms, 0540ms total)
T0620 000:577 JLINK_GetHardwareVersion()  returns 0x11170 (0000ms, 0540ms total)
T0620 000:577 JLINK_GetDLLVersion()  returns 49604 (0000ms, 0540ms total)
T0620 000:577 JLINK_GetFirmwareString(...) (0000ms, 0540ms total)
T0620 000:591 JLINK_GetDLLVersion()  returns 49604 (0000ms, 0540ms total)
T0620 000:591 JLINK_GetCompileDateTime() (0000ms, 0540ms total)
T0620 000:596 JLINK_GetFirmwareString(...) (0000ms, 0540ms total)
T0620 000:598 JLINK_GetHardwareVersion()  returns 0x11170 (0000ms, 0540ms total)
T0620 000:611 JLINK_TIF_Select(JLINKARM_TIF_SWD)  returns 0x00 (0001ms, 0541ms total)
T0620 000:612 JLINK_SetSpeed(20000) (0001ms, 0542ms total)
T0620 000:613 JLINK_GetId() >0x108 TIF>Found SWD-DP with ID 0x0BC11477 >0x0D TIF> >0x21 TIF> >0x0D TIF> >0x28 TIF> >0x0D TIF> >0x28 TIF> >0x0D TIF> >0x21 TIF> >0x0D TIF> >0x28 TIF> >0x0D TIF> >0x21 TIF> >0x0D TIF> >0x21 TIF> >0x0D TIF> >0x21 TIF> >0x0D TIF> >0x28 TIF> >0x0D TIF> >0x28 TIF> >0x0D TIF> >0x28 TIF> >0x0D TIF> >0x21 TIF> >0x0D TIF> >0x21 TIF> >0x0D TIF> >0x21 TIF> >0x0D TIF> >0x28 TIF> >0x0D TIF> >0x28 TIF> >0x0D TIF> >0x21 TIF> >0x0D TIF> >0x28 TIF> >0x0D TIF> >0x28 TIF> >0x0D TIF>
 >0x28 TIF> >0x0D TIF> >0x21 TIF> >0x0D TIF> >0x21 TIF> >0x0D TIF> >0x28 TIF> >0x0D TIF> >0x21 TIF> >0x0D TIF> >0x21 TIF>Found Cortex-M0 r0p1, Little endian. -- CPU_WriteMem(4 bytes @ 0xE0002000) -- CPU_ReadMem(4 bytes @ 0xE000EDF0) -- CPU_ReadMem(4 bytes @ 0xE0002000)FPUnit: 4 code (BP) slots and 0 literal slots -- CPU_ReadMem(4 bytes @ 0xE000EDFC) -- CPU_ReadMem(4 bytes @ 0xE0001000) -- CPU_WriteMem(4 bytes @ 0xE0001000) -- CPU_ReadMem(4 bytes @ 0xE00FF018) >0x0D TIF> >0x21 TIF>  returns 0x0BC11477
 (0027ms, 0569ms total)
T0620 000:640 JLINK_GetDLLVersion()  returns 49604 (0000ms, 0569ms total)
T0620 000:640 JLINK_CORE_GetFound()  returns 0x60000FF (0000ms, 0569ms total)
T0620 000:640 JLINK_GetDebugInfo(0x100) -- Value=0xF0000003  returns 0x00 (0000ms, 0569ms total)
T0620 000:642 JLINK_ReadMem (0xF0000000, 0x0020 Bytes, ...) -- CPU is running -- CPU_ReadMem(32 bytes @ 0xF0000000) - Data: 03 F0 0F F0 02 00 20 00 02 00 00 10 02 00 00 10 ...  returns 0x00 (0001ms, 0570ms total)
T0620 000:643 JLINK_ReadMem (0xE00FFFF0, 0x0010 Bytes, ...) -- CPU is running -- CPU_ReadMem(16 bytes @ 0xE00FFFF0) - Data: 0D 00 00 00 10 00 00 00 05 00 00 00 B1 00 00 00  returns 0x00 (0002ms, 0572ms total)
T0620 000:645 JLINK_ReadMem (0xE00FFFD0, 0x0020 Bytes, ...) -- CPU is running -- CPU_ReadMem(32 bytes @ 0xE00FFFD0) - Data: 04 00 00 00 00 00 00 00 00 00 00 00 00 00 00 00 ...  returns 0x00 (0001ms, 0573ms total)
T0620 000:646 JLINK_ReadMem (0xE00FF000, 0x0020 Bytes, ...) -- CPU is running -- CPU_ReadMem(32 bytes @ 0xE00FF000) - Data: 03 F0 F0 FF 03 20 F0 FF 03 30 F0 FF 00 00 00 00 ...  returns 0x00 (0001ms, 0574ms total)
T0620 000:647 JLINK_ReadMem (0xE000EFF0, 0x0010 Bytes, ...) -- CPU is running -- CPU_ReadMem(16 bytes @ 0xE000EFF0) - Data: 0D 00 00 00 E0 00 00 00 05 00 00 00 B1 00 00 00  returns 0x00 (0000ms, 0574ms total)
T0620 000:647 JLINK_ReadMem (0xE000EFD0, 0x0020 Bytes, ...) -- CPU is running -- CPU_ReadMem(32 bytes @ 0xE000EFD0) - Data: 04 00 00 00 00 00 00 00 00 00 00 00 00 00 00 00 ...  returns 0x00 (0001ms, 0575ms total)
T0620 000:648 JLINK_ReadMem (0xE0001FF0, 0x0010 Bytes, ...) -- CPU is running -- CPU_ReadMem(16 bytes @ 0xE0001FF0) - Data: 0D 00 00 00 E0 00 00 00 05 00 00 00 B1 00 00 00  returns 0x00 (0001ms, 0576ms total)
T0620 000:649 JLINK_ReadMem (0xE0001FD0, 0x0020 Bytes, ...) -- CPU is running -- CPU_ReadMem(32 bytes @ 0xE0001FD0) - Data: 04 00 00 00 00 00 00 00 00 00 00 00 00 00 00 00 ...  returns 0x00 (0001ms, 0577ms total)
T0620 000:650 JLINK_ReadMem (0xE0002FF0, 0x0010 Bytes, ...) -- CPU is running -- CPU_ReadMem(16 bytes @ 0xE0002FF0) - Data: 0D 00 00 00 E0 00 00 00 05 00 00 00 B1 00 00 00  returns 0x00 (0000ms, 0577ms total)
T0620 000:650 JLINK_ReadMem (0xE0002FD0, 0x0020 Bytes, ...) -- CPU is running -- CPU_ReadMem(32 bytes @ 0xE0002FD0) - Data: 04 00 00 00 00 00 00 00 00 00 00 00 00 00 00 00 ...  returns 0x00 (0001ms, 0578ms total)
T0620 000:651 JLINK_ReadMemU32(0xE000ED00, 0x0001 Items, ...) -- CPU is running -- CPU_ReadMem(4 bytes @ 0xE000ED00) - Data: 01 C6 0C 41  returns 0x01 (0000ms, 0578ms total)
T0620 000:651 JLINK_SetResetType(JLINKARM_RESET_TYPE_NORMAL)  returns JLINKARM_RESET_TYPE_NORMAL (0000ms, 0578ms total)
T0620 000:651 JLINK_Reset() -- CPU is running -- CPU_WriteMem(4 bytes @ 0xE000EDF0) -- CPU is running -- CPU_WriteMem(4 bytes @ 0xE000EDFC) >0x35 TIF> -- CPU is running -- CPU_WriteMem(4 bytes @ 0xE000ED0C) -- CPU is running -- CPU_ReadMem(4 bytes @ 0xE000EDF0) -- CPU is running -- CPU_ReadMem(4 bytes @ 0xE000EDF0) -- CPU is running -- CPU_WriteMem(4 bytes @ 0xE000EDF0) -- CPU is running -- CPU_WriteMem(4 bytes @ 0xE000EDFC) -- CPU is running -- CPU_ReadMem(4 bytes @ 0xE000EDF0)
 -- CPU_WriteMem(4 bytes @ 0xE0002000) -- CPU_ReadMem(4 bytes @ 0xE000EDFC) -- CPU_ReadMem(4 bytes @ 0xE0001000) -- CPU_WriteMem(4 bytes @ 0xE0001000) (0020ms, 0598ms total)
T0620 000:671 JLINK_Halt()  returns 0x00 (0000ms, 0598ms total)
T0620 000:671 JLINK_IsHalted()  returns TRUE (0000ms, 0598ms total)
T0620 000:671 JLINK_ReadMemU32(0xE000EDF0, 0x0001 Items, ...) -- CPU_ReadMem(4 bytes @ 0xE000EDF0) - Data: 03 00 03 01  returns 0x01 (0002ms, 0600ms total)
T0620 000:673 JLINK_WriteU32(0xE000EDF0, 0xA05F0003) -- CPU_WriteMem(4 bytes @ 0xE000EDF0)  returns 0x00 (0001ms, 0601ms total)
T0620 000:674 JLINK_WriteU32(0xE000EDFC, 0x01000000) -- CPU_WriteMem(4 bytes @ 0xE000EDFC)  returns 0x00 (0000ms, 0601ms total)
T0620 000:682 JLINK_GetHWStatus(...)  returns 0x00 (0001ms, 0602ms total)
T0620 000:688 JLINK_GetNumBPUnits(Type = 0xFFFFFF00)  returns 0x04 (0000ms, 0602ms total)
T0620 000:688 JLINK_GetNumBPUnits(Type = 0xF0)  returns 0x2000 (0000ms, 0602ms total)
T0620 000:688 JLINK_GetNumWPUnits()  returns 0x02 (0000ms, 0602ms total)
T0620 000:694 JLINK_GetSpeed()  returns 0xFA0 (0000ms, 0602ms total)
T0620 000:697 JLINK_ReadMemU32(0xE000E004, 0x0001 Items, ...) -- CPU_ReadMem(4 bytes @ 0xE000E004) - Data: 00 00 00 00  returns 0x01 (0002ms, 0604ms total)
T0620 000:699 JLINK_Halt()  returns 0x00 (0000ms, 0604ms total)
T0620 000:699 JLINK_IsHalted()  returns TRUE (0000ms, 0604ms total)
T0620 000:702 JLINK_WriteMem(0x20000000, 0x0218 Bytes, ...) - Data: 00 BE 0A E0 0D 78 2D 06 68 40 08 24 40 00 00 D3 ... -- CPU_WriteMem(536 bytes @ 0x20000000)  returns 0x218 (0008ms, 0612ms total)
T0620 000:710 JLINK_WriteReg(R0, 0x08000000)  returns 0x00 (0000ms, 0612ms total)
T0620 000:710 JLINK_WriteReg(R1, 0x007A1200)  returns 0x00 (0000ms, 0612ms total)
T0620 000:710 JLINK_WriteReg(R2, 0x00000001)  returns 0x00 (0000ms, 0612ms total)
T0620 000:710 JLINK_WriteReg(R3, 0x00000000)  returns 0x00 (0000ms, 0612ms total)
T0620 000:710 JLINK_WriteReg(R4, 0x00000000)  returns 0x00 (0000ms, 0612ms total)
T0620 000:710 JLINK_WriteReg(R5, 0x00000000)  returns 0x00 (0000ms, 0612ms total)
T0620 000:710 JLINK_WriteReg(R6, 0x00000000)  returns 0x00 (0000ms, 0612ms total)
T0620 000:710 JLINK_WriteReg(R7, 0x00000000)  returns 0x00 (0000ms, 0612ms total)
T0620 000:710 JLINK_WriteReg(R8, 0x00000000)  returns 0x00 (0000ms, 0612ms total)
T0620 000:710 JLINK_WriteReg(R9, 0x20000200)  returns 0x00 (0000ms, 0612ms total)
T0620 000:710 JLINK_WriteReg(R10, 0x00000000)  returns 0x00 (0000ms, 0612ms total)
T0620 000:710 JLINK_WriteReg(R11, 0x00000000)  returns 0x00 (0000ms, 0612ms total)
T0620 000:710 JLINK_WriteReg(R12, 0x00000000)  returns 0x00 (0000ms, 0612ms total)
T0620 000:710 JLINK_WriteReg(R13 (SP), 0x20002000)  returns 0x00 (0000ms, 0612ms total)
T0620 000:710 JLINK_WriteReg(R14, 0x20000001)  returns 0x00 (0000ms, 0612ms total)
T0620 000:710 JLINK_WriteReg(R15 (PC), 0x20000020)  returns 0x00 (0000ms, 0612ms total)
T0620 000:710 JLINK_WriteReg(XPSR, 0x01000000)  returns 0x00 (0000ms, 0612ms total)
T0620 000:710 JLINK_WriteReg(MSP, 0x20002000)  returns 0x00 (0000ms, 0612ms total)
T0620 000:710 JLINK_WriteReg(PSP, 0x20002000)  returns 0x00 (0000ms, 0612ms total)
T0620 000:710 JLINK_WriteReg(CFBP, 0x00000000)  returns 0x00 (0000ms, 0612ms total)
T0620 000:710 JLINK_SetBPEx(Addr = 0x20000000, Type = 0xFFFFFFF2) -- CPU_ReadMem(4 bytes @ 0x20000000) -- CPU_WriteMem(4 bytes @ 0x20000000) -- CPU_ReadMem(4 bytes @ 0x20000000) -- CPU_WriteMem(4 bytes @ 0x20000000) -- CPU_ReadMem(2 bytes @ 0x20000000)  returns 0x00000001 (0005ms, 0617ms total)
T0620 000:715 JLINK_Go() -- CPU_WriteMem(2 bytes @ 0x20000000) -- CPU_WriteMem(4 bytes @ 0xE0002008) -- CPU_WriteMem(4 bytes @ 0xE000200C) -- CPU_WriteMem(4 bytes @ 0xE0002010) -- CPU_WriteMem(4 bytes @ 0xE0002014) -- CPU_WriteMem(4 bytes @ 0xE0001004) (0008ms, 0625ms total)
T0620 000:723 JLINK_IsHalted() -- CPU_ReadMem(2 bytes @ 0x20000000)  returns TRUE (0005ms, 0630ms total)
T0620 000:728 JLINK_ReadReg(R15 (PC))  returns 0x20000000 (0000ms, 0625ms total)
T0620 000:728 JLINK_ClrBPEx(BPHandle = 0x00000001)  returns 0x00 (0000ms, 0625ms total)
T0620 000:728 JLINK_ReadReg(R0)  returns 0x00000000 (0000ms, 0625ms total)
T0620 000:729 JLINK_WriteReg(R0, 0x08000000)  returns 0x00 (0000ms, 0625ms total)
T0620 000:729 JLINK_WriteReg(R1, 0x00000800)  returns 0x00 (0000ms, 0625ms total)
T0620 000:729 JLINK_WriteReg(R2, 0x000000FF)  returns 0x00 (0000ms, 0625ms total)
T0620 000:729 JLINK_WriteReg(R3, 0x00000000)  returns 0x00 (0000ms, 0625ms total)
T0620 000:729 JLINK_WriteReg(R4, 0x00000000)  returns 0x00 (0000ms, 0625ms total)
T0620 000:729 JLINK_WriteReg(R5, 0x00000000)  returns 0x00 (0000ms, 0625ms total)
T0620 000:729 JLINK_WriteReg(R6, 0x00000000)  returns 0x00 (0000ms, 0625ms total)
T0620 000:729 JLINK_WriteReg(R7, 0x00000000)  returns 0x00 (0000ms, 0625ms total)
T0620 000:729 JLINK_WriteReg(R8, 0x00000000)  returns 0x00 (0000ms, 0625ms total)
T0620 000:729 JLINK_WriteReg(R9, 0x20000200)  returns 0x00 (0000ms, 0625ms total)
T0620 000:729 JLINK_WriteReg(R10, 0x00000000)  returns 0x00 (0000ms, 0625ms total)
T0620 000:729 JLINK_WriteReg(R11, 0x00000000)  returns 0x00 (0000ms, 0625ms total)
T0620 000:729 JLINK_WriteReg(R12, 0x00000000)  returns 0x00 (0000ms, 0625ms total)
T0620 000:729 JLINK_WriteReg(R13 (SP), 0x20002000)  returns 0x00 (0000ms, 0625ms total)
T0620 000:729 JLINK_WriteReg(R14, 0x20000001)  returns 0x00 (0000ms, 0625ms total)
T0620 000:729 JLINK_WriteReg(R15 (PC), 0x200000C8)  returns 0x00 (0000ms, 0625ms total)
T0620 000:730 JLINK_WriteReg(XPSR, 0x01000000)  returns 0x00 (0000ms, 0626ms total)
T0620 000:730 JLINK_WriteReg(MSP, 0x20002000)  returns 0x00 (0000ms, 0626ms total)
T0620 000:730 JLINK_WriteReg(PSP, 0x20002000)  returns 0x00 (0000ms, 0626ms total)
T0620 000:730 JLINK_WriteReg(CFBP, 0x00000000)  returns 0x00 (0000ms, 0626ms total)
T0620 000:730 JLINK_SetBPEx(Addr = 0x20000000, Type = 0xFFFFFFF2)  returns 0x00000002 (0000ms, 0626ms total)
T0620 000:730 JLINK_Go() (0002ms, 0628ms total)
T0620 000:732 JLINK_IsHalted() -- CPU_ReadMem(2 bytes @ 0x20000000)  returns TRUE (0005ms, 0633ms total)
T0620 000:737 JLINK_ReadReg(R15 (PC))  returns 0x20000000 (0000ms, 0628ms total)
T0620 000:737 JLINK_ClrBPEx(BPHandle = 0x00000002)  returns 0x00 (0000ms, 0628ms total)
T0620 000:737 JLINK_ReadReg(R0)  returns 0x00000001 (0000ms, 0628ms total)
T0620 000:737 JLINK_WriteReg(R0, 0x08000000)  returns 0x00 (0000ms, 0628ms total)
T0620 000:737 JLINK_WriteReg(R1, 0x00000800)  returns 0x00 (0000ms, 0628ms total)
T0620 000:737 JLINK_WriteReg(R2, 0x000000FF)  returns 0x00 (0000ms, 0628ms total)
T0620 000:737 JLINK_WriteReg(R3, 0x00000000)  returns 0x00 (0000ms, 0628ms total)
T0620 000:737 JLINK_WriteReg(R4, 0x00000000)  returns 0x00 (0000ms, 0628ms total)
T0620 000:737 JLINK_WriteReg(R5, 0x00000000)  returns 0x00 (0000ms, 0628ms total)
T0620 000:737 JLINK_WriteReg(R6, 0x00000000)  returns 0x00 (0000ms, 0628ms total)
T0620 000:737 JLINK_WriteReg(R7, 0x00000000)  returns 0x00 (0000ms, 0628ms total)
T0620 000:737 JLINK_WriteReg(R8, 0x00000000)  returns 0x00 (0000ms, 0628ms total)
T0620 000:737 JLINK_WriteReg(R9, 0x20000200)  returns 0x00 (0000ms, 0628ms total)
T0620 000:737 JLINK_WriteReg(R10, 0x00000000)  returns 0x00 (0000ms, 0628ms total)
T0620 000:737 JLINK_WriteReg(R11, 0x00000000)  returns 0x00 (0000ms, 0628ms total)
T0620 000:737 JLINK_WriteReg(R12, 0x00000000)  returns 0x00 (0000ms, 0628ms total)
T0620 000:737 JLINK_WriteReg(R13 (SP), 0x20002000)  returns 0x00 (0000ms, 0628ms total)
T0620 000:737 JLINK_WriteReg(R14, 0x20000001)  returns 0x00 (0000ms, 0628ms total)
T0620 000:737 JLINK_WriteReg(R15 (PC), 0x20000100)  returns 0x00 (0000ms, 0628ms total)
T0620 000:737 JLINK_WriteReg(XPSR, 0x01000000)  returns 0x00 (0000ms, 0628ms total)
T0620 000:737 JLINK_WriteReg(MSP, 0x20002000)  returns 0x00 (0000ms, 0628ms total)
T0620 000:737 JLINK_WriteReg(PSP, 0x20002000)  returns 0x00 (0000ms, 0628ms total)
T0620 000:737 JLINK_WriteReg(CFBP, 0x00000000)  returns 0x00 (0000ms, 0628ms total)
T0620 000:737 JLINK_SetBPEx(Addr = 0x20000000, Type = 0xFFFFFFF2)  returns 0x00000003 (0000ms, 0628ms total)
T0620 000:737 JLINK_Go() (0003ms, 0631ms total)
T0620 000:740 JLINK_IsHalted()  returns FALSE (0001ms, 0632ms total)
T0620 000:787 JLINK_IsHalted() -- CPU_ReadMem(2 bytes @ 0x20000000)  returns TRUE (0005ms, 0636ms total)
T0620 000:792 JLINK_ReadReg(R15 (PC))  returns 0x20000000 (0000ms, 0631ms total)
T0620 000:792 JLINK_ClrBPEx(BPHandle = 0x00000003)  returns 0x00 (0000ms, 0631ms total)
T0620 000:792 JLINK_ReadReg(R0)  returns 0x00000000 (0000ms, 0631ms total)
T0620 000:793 JLINK_WriteReg(R0, 0x08000800)  returns 0x00 (0000ms, 0631ms total)
T0620 000:793 JLINK_WriteReg(R1, 0x00000800)  returns 0x00 (0000ms, 0631ms total)
T0620 000:793 JLINK_WriteReg(R2, 0x000000FF)  returns 0x00 (0000ms, 0631ms total)
T0620 000:793 JLINK_WriteReg(R3, 0x00000000)  returns 0x00 (0000ms, 0631ms total)
T0620 000:793 JLINK_WriteReg(R4, 0x00000000)  returns 0x00 (0000ms, 0631ms total)
T0620 000:793 JLINK_WriteReg(R5, 0x00000000)  returns 0x00 (0000ms, 0631ms total)
T0620 000:793 JLINK_WriteReg(R6, 0x00000000)  returns 0x00 (0000ms, 0631ms total)
T0620 000:793 JLINK_WriteReg(R7, 0x00000000)  returns 0x00 (0000ms, 0631ms total)
T0620 000:793 JLINK_WriteReg(R8, 0x00000000)  returns 0x00 (0000ms, 0631ms total)
T0620 000:793 JLINK_WriteReg(R9, 0x20000200)  returns 0x00 (0000ms, 0631ms total)
T0620 000:793 JLINK_WriteReg(R10, 0x00000000)  returns 0x00 (0000ms, 0631ms total)
T0620 000:793 JLINK_WriteReg(R11, 0x00000000)  returns 0x00 (0001ms, 0632ms total)
T0620 000:794 JLINK_WriteReg(R12, 0x00000000)  returns 0x00 (0000ms, 0632ms total)
T0620 000:794 JLINK_WriteReg(R13 (SP), 0x20002000)  returns 0x00 (0000ms, 0632ms total)
T0620 000:794 JLINK_WriteReg(R14, 0x20000001)  returns 0x00 (0000ms, 0632ms total)
T0620 000:794 JLINK_WriteReg(R15 (PC), 0x200000C8)  returns 0x00 (0000ms, 0632ms total)
T0620 000:794 JLINK_WriteReg(XPSR, 0x01000000)  returns 0x00 (0000ms, 0632ms total)
T0620 000:794 JLINK_WriteReg(MSP, 0x20002000)  returns 0x00 (0000ms, 0632ms total)
T0620 000:794 JLINK_WriteReg(PSP, 0x20002000)  returns 0x00 (0000ms, 0632ms total)
T0620 000:794 JLINK_WriteReg(CFBP, 0x00000000)  returns 0x00 (0000ms, 0632ms total)
T0620 000:794 JLINK_SetBPEx(Addr = 0x20000000, Type = 0xFFFFFFF2)  returns 0x00000004 (0000ms, 0632ms total)
T0620 000:794 JLINK_Go() (0003ms, 0635ms total)
T0620 000:797 JLINK_IsHalted() -- CPU_ReadMem(2 bytes @ 0x20000000)  returns TRUE (0004ms, 0639ms total)
T0620 000:801 JLINK_ReadReg(R15 (PC))  returns 0x20000000 (0000ms, 0635ms total)
T0620 000:801 JLINK_ClrBPEx(BPHandle = 0x00000004)  returns 0x00 (0000ms, 0635ms total)
T0620 000:801 JLINK_ReadReg(R0)  returns 0x00000001 (0001ms, 0636ms total)
T0620 000:802 JLINK_WriteReg(R0, 0x08000800)  returns 0x00 (0000ms, 0636ms total)
T0620 000:802 JLINK_WriteReg(R1, 0x00000800)  returns 0x00 (0000ms, 0636ms total)
T0620 000:802 JLINK_WriteReg(R2, 0x000000FF)  returns 0x00 (0000ms, 0636ms total)
T0620 000:802 JLINK_WriteReg(R3, 0x00000000)  returns 0x00 (0000ms, 0636ms total)
T0620 000:802 JLINK_WriteReg(R4, 0x00000000)  returns 0x00 (0000ms, 0636ms total)
T0620 000:802 JLINK_WriteReg(R5, 0x00000000)  returns 0x00 (0000ms, 0636ms total)
T0620 000:802 JLINK_WriteReg(R6, 0x00000000)  returns 0x00 (0000ms, 0636ms total)
T0620 000:802 JLINK_WriteReg(R7, 0x00000000)  returns 0x00 (0000ms, 0636ms total)
T0620 000:802 JLINK_WriteReg(R8, 0x00000000)  returns 0x00 (0000ms, 0636ms total)
T0620 000:802 JLINK_WriteReg(R9, 0x20000200)  returns 0x00 (0000ms, 0636ms total)
T0620 000:802 JLINK_WriteReg(R10, 0x00000000)  returns 0x00 (0000ms, 0636ms total)
T0620 000:802 JLINK_WriteReg(R11, 0x00000000)  returns 0x00 (0000ms, 0636ms total)
T0620 000:802 JLINK_WriteReg(R12, 0x00000000)  returns 0x00 (0000ms, 0636ms total)
T0620 000:802 JLINK_WriteReg(R13 (SP), 0x20002000)  returns 0x00 (0000ms, 0636ms total)
T0620 000:802 JLINK_WriteReg(R14, 0x20000001)  returns 0x00 (0000ms, 0636ms total)
T0620 000:802 JLINK_WriteReg(R15 (PC), 0x20000100)  returns 0x00 (0000ms, 0636ms total)
T0620 000:802 JLINK_WriteReg(XPSR, 0x01000000)  returns 0x00 (0000ms, 0636ms total)
T0620 000:802 JLINK_WriteReg(MSP, 0x20002000)  returns 0x00 (0000ms, 0636ms total)
T0620 000:802 JLINK_WriteReg(PSP, 0x20002000)  returns 0x00 (0000ms, 0636ms total)
T0620 000:802 JLINK_WriteReg(CFBP, 0x00000000)  returns 0x00 (0000ms, 0636ms total)
T0620 000:802 JLINK_SetBPEx(Addr = 0x20000000, Type = 0xFFFFFFF2)  returns 0x00000005 (0000ms, 0636ms total)
T0620 000:802 JLINK_Go() (0003ms, 0639ms total)
T0620 000:805 JLINK_IsHalted()  returns FALSE (0000ms, 0639ms total)
T0620 000:811 JLINK_IsHalted()  returns FALSE (0000ms, 0639ms total)
T0620 000:813 JLINK_IsHalted()  returns FALSE (0001ms, 0640ms total)
T0620 000:815 JLINK_IsHalted()  returns FALSE (0001ms, 0640ms total)
T0620 000:818 JLINK_IsHalted()  returns FALSE (0001ms, 0640ms total)
T0620 000:821 JLINK_IsHalted()  returns FALSE (0000ms, 0639ms total)
T0620 000:824 JLINK_IsHalted()  returns FALSE (0001ms, 0640ms total)
T0620 000:827 JLINK_IsHalted() -- CPU_ReadMem(2 bytes @ 0x20000000)  returns TRUE (0004ms, 0643ms total)
T0620 000:831 JLINK_ReadReg(R15 (PC))  returns 0x20000000 (0000ms, 0639ms total)
T0620 000:831 JLINK_ClrBPEx(BPHandle = 0x00000005)  returns 0x00 (0000ms, 0639ms total)
T0620 000:831 JLINK_ReadReg(R0)  returns 0x00000000 (0002ms, 0641ms total)
T0620 000:835 JLINK_WriteReg(R0, 0x08001000)  returns 0x00 (0000ms, 0641ms total)
T0620 000:835 JLINK_WriteReg(R1, 0x00000800)  returns 0x00 (0000ms, 0641ms total)
T0620 000:835 JLINK_WriteReg(R2, 0x000000FF)  returns 0x00 (0000ms, 0641ms total)
T0620 000:835 JLINK_WriteReg(R3, 0x00000000)  returns 0x00 (0000ms, 0641ms total)
T0620 000:835 JLINK_WriteReg(R4, 0x00000000)  returns 0x00 (0000ms, 0641ms total)
T0620 000:835 JLINK_WriteReg(R5, 0x00000000)  returns 0x00 (0000ms, 0641ms total)
T0620 000:835 JLINK_WriteReg(R6, 0x00000000)  returns 0x00 (0000ms, 0641ms total)
T0620 000:835 JLINK_WriteReg(R7, 0x00000000)  returns 0x00 (0000ms, 0641ms total)
T0620 000:835 JLINK_WriteReg(R8, 0x00000000)  returns 0x00 (0000ms, 0641ms total)
T0620 000:835 JLINK_WriteReg(R9, 0x20000200)  returns 0x00 (0000ms, 0641ms total)
T0620 000:835 JLINK_WriteReg(R10, 0x00000000)  returns 0x00 (0000ms, 0641ms total)
T0620 000:835 JLINK_WriteReg(R11, 0x00000000)  returns 0x00 (0000ms, 0641ms total)
T0620 000:835 JLINK_WriteReg(R12, 0x00000000)  returns 0x00 (0000ms, 0641ms total)
T0620 000:835 JLINK_WriteReg(R13 (SP), 0x20002000)  returns 0x00 (0000ms, 0641ms total)
T0620 000:835 JLINK_WriteReg(R14, 0x20000001)  returns 0x00 (0000ms, 0641ms total)
T0620 000:835 JLINK_WriteReg(R15 (PC), 0x200000C8)  returns 0x00 (0000ms, 0641ms total)
T0620 000:835 JLINK_WriteReg(XPSR, 0x01000000)  returns 0x00 (0000ms, 0641ms total)
T0620 000:835 JLINK_WriteReg(MSP, 0x20002000)  returns 0x00 (0000ms, 0641ms total)
T0620 000:835 JLINK_WriteReg(PSP, 0x20002000)  returns 0x00 (0000ms, 0641ms total)
T0620 000:835 JLINK_WriteReg(CFBP, 0x00000000)  returns 0x00 (0000ms, 0641ms total)
T0620 000:835 JLINK_SetBPEx(Addr = 0x20000000, Type = 0xFFFFFFF2)  returns 0x00000006 (0000ms, 0641ms total)
T0620 000:835 JLINK_Go() (0003ms, 0644ms total)
T0620 000:838 JLINK_IsHalted() -- CPU_ReadMem(2 bytes @ 0x20000000)  returns TRUE (0005ms, 0649ms total)
T0620 000:843 JLINK_ReadReg(R15 (PC))  returns 0x20000000 (0000ms, 0644ms total)
T0620 000:843 JLINK_ClrBPEx(BPHandle = 0x00000006)  returns 0x00 (0000ms, 0644ms total)
T0620 000:843 JLINK_ReadReg(R0)  returns 0x00000001 (0000ms, 0644ms total)
T0620 000:843 JLINK_WriteReg(R0, 0x08001000)  returns 0x00 (0000ms, 0644ms total)
T0620 000:843 JLINK_WriteReg(R1, 0x00000800)  returns 0x00 (0000ms, 0644ms total)
T0620 000:843 JLINK_WriteReg(R2, 0x000000FF)  returns 0x00 (0000ms, 0644ms total)
T0620 000:843 JLINK_WriteReg(R3, 0x00000000)  returns 0x00 (0000ms, 0644ms total)
T0620 000:843 JLINK_WriteReg(R4, 0x00000000)  returns 0x00 (0000ms, 0644ms total)
T0620 000:843 JLINK_WriteReg(R5, 0x00000000)  returns 0x00 (0000ms, 0644ms total)
T0620 000:843 JLINK_WriteReg(R6, 0x00000000)  returns 0x00 (0000ms, 0644ms total)
T0620 000:843 JLINK_WriteReg(R7, 0x00000000)  returns 0x00 (0000ms, 0644ms total)
T0620 000:843 JLINK_WriteReg(R8, 0x00000000)  returns 0x00 (0000ms, 0644ms total)
T0620 000:843 JLINK_WriteReg(R9, 0x20000200)  returns 0x00 (0000ms, 0644ms total)
T0620 000:843 JLINK_WriteReg(R10, 0x00000000)  returns 0x00 (0000ms, 0644ms total)
T0620 000:843 JLINK_WriteReg(R11, 0x00000000)  returns 0x00 (0000ms, 0644ms total)
T0620 000:843 JLINK_WriteReg(R12, 0x00000000)  returns 0x00 (0000ms, 0644ms total)
T0620 000:843 JLINK_WriteReg(R13 (SP), 0x20002000)  returns 0x00 (0000ms, 0644ms total)
T0620 000:843 JLINK_WriteReg(R14, 0x20000001)  returns 0x00 (0000ms, 0644ms total)
T0620 000:843 JLINK_WriteReg(R15 (PC), 0x20000100)  returns 0x00 (0000ms, 0644ms total)
T0620 000:843 JLINK_WriteReg(XPSR, 0x01000000)  returns 0x00 (0000ms, 0644ms total)
T0620 000:843 JLINK_WriteReg(MSP, 0x20002000)  returns 0x00 (0000ms, 0644ms total)
T0620 000:843 JLINK_WriteReg(PSP, 0x20002000)  returns 0x00 (0000ms, 0644ms total)
T0620 000:843 JLINK_WriteReg(CFBP, 0x00000000)  returns 0x00 (0000ms, 0644ms total)
T0620 000:843 JLINK_SetBPEx(Addr = 0x20000000, Type = 0xFFFFFFF2)  returns 0x00000007 (0000ms, 0644ms total)
T0620 000:843 JLINK_Go() (0002ms, 0646ms total)
T0620 000:845 JLINK_IsHalted()  returns FALSE (0001ms, 0647ms total)
T0620 000:855 JLINK_IsHalted()  returns FALSE (0001ms, 0647ms total)
T0620 000:858 JLINK_IsHalted()  returns FALSE (0000ms, 0646ms total)
T0620 000:861 JLINK_IsHalted()  returns FALSE (0000ms, 0646ms total)
T0620 000:863 JLINK_IsHalted()  returns FALSE (0000ms, 0646ms total)
T0620 000:864 JLINK_IsHalted()  returns FALSE (0001ms, 0647ms total)
T0620 000:868 JLINK_IsHalted() -- CPU_ReadMem(2 bytes @ 0x20000000)  returns TRUE (0005ms, 0651ms total)
T0620 000:873 JLINK_ReadReg(R15 (PC))  returns 0x20000000 (0000ms, 0646ms total)
T0620 000:873 JLINK_ClrBPEx(BPHandle = 0x00000007)  returns 0x00 (0000ms, 0646ms total)
T0620 000:873 JLINK_ReadReg(R0)  returns 0x00000000 (0000ms, 0646ms total)
T0620 000:873 JLINK_WriteReg(R0, 0x08001800)  returns 0x00 (0000ms, 0646ms total)
T0620 000:873 JLINK_WriteReg(R1, 0x00000800)  returns 0x00 (0000ms, 0646ms total)
T0620 000:873 JLINK_WriteReg(R2, 0x000000FF)  returns 0x00 (0000ms, 0646ms total)
T0620 000:873 JLINK_WriteReg(R3, 0x00000000)  returns 0x00 (0000ms, 0646ms total)
T0620 000:873 JLINK_WriteReg(R4, 0x00000000)  returns 0x00 (0000ms, 0646ms total)
T0620 000:873 JLINK_WriteReg(R5, 0x00000000)  returns 0x00 (0000ms, 0646ms total)
T0620 000:873 JLINK_WriteReg(R6, 0x00000000)  returns 0x00 (0000ms, 0646ms total)
T0620 000:873 JLINK_WriteReg(R7, 0x00000000)  returns 0x00 (0000ms, 0646ms total)
T0620 000:873 JLINK_WriteReg(R8, 0x00000000)  returns 0x00 (0000ms, 0646ms total)
T0620 000:873 JLINK_WriteReg(R9, 0x20000200)  returns 0x00 (0000ms, 0646ms total)
T0620 000:873 JLINK_WriteReg(R10, 0x00000000)  returns 0x00 (0000ms, 0646ms total)
T0620 000:873 JLINK_WriteReg(R11, 0x00000000)  returns 0x00 (0000ms, 0646ms total)
T0620 000:874 JLINK_WriteReg(R12, 0x00000000)  returns 0x00 (0000ms, 0647ms total)
T0620 000:874 JLINK_WriteReg(R13 (SP), 0x20002000)  returns 0x00 (0000ms, 0647ms total)
T0620 000:874 JLINK_WriteReg(R14, 0x20000001)  returns 0x00 (0000ms, 0647ms total)
T0620 000:874 JLINK_WriteReg(R15 (PC), 0x200000C8)  returns 0x00 (0000ms, 0647ms total)
T0620 000:874 JLINK_WriteReg(XPSR, 0x01000000)  returns 0x00 (0000ms, 0647ms total)
T0620 000:874 JLINK_WriteReg(MSP, 0x20002000)  returns 0x00 (0000ms, 0647ms total)
T0620 000:874 JLINK_WriteReg(PSP, 0x20002000)  returns 0x00 (0000ms, 0647ms total)
T0620 000:874 JLINK_WriteReg(CFBP, 0x00000000)  returns 0x00 (0000ms, 0647ms total)
T0620 000:874 JLINK_SetBPEx(Addr = 0x20000000, Type = 0xFFFFFFF2)  returns 0x00000008 (0000ms, 0647ms total)
T0620 000:874 JLINK_Go() (0003ms, 0650ms total)
T0620 000:877 JLINK_IsHalted() -- CPU_ReadMem(2 bytes @ 0x20000000)  returns TRUE (0005ms, 0655ms total)
T0620 000:882 JLINK_ReadReg(R15 (PC))  returns 0x20000000 (0000ms, 0650ms total)
T0620 000:882 JLINK_ClrBPEx(BPHandle = 0x00000008)  returns 0x00 (0000ms, 0650ms total)
T0620 000:882 JLINK_ReadReg(R0)  returns 0x00000001 (0000ms, 0650ms total)
T0620 000:882 JLINK_WriteReg(R0, 0x08001800)  returns 0x00 (0000ms, 0650ms total)
T0620 000:882 JLINK_WriteReg(R1, 0x00000800)  returns 0x00 (0000ms, 0650ms total)
T0620 000:882 JLINK_WriteReg(R2, 0x000000FF)  returns 0x00 (0000ms, 0650ms total)
T0620 000:882 JLINK_WriteReg(R3, 0x00000000)  returns 0x00 (0000ms, 0650ms total)
T0620 000:882 JLINK_WriteReg(R4, 0x00000000)  returns 0x00 (0000ms, 0650ms total)
T0620 000:882 JLINK_WriteReg(R5, 0x00000000)  returns 0x00 (0000ms, 0650ms total)
T0620 000:882 JLINK_WriteReg(R6, 0x00000000)  returns 0x00 (0000ms, 0650ms total)
T0620 000:882 JLINK_WriteReg(R7, 0x00000000)  returns 0x00 (0000ms, 0650ms total)
T0620 000:882 JLINK_WriteReg(R8, 0x00000000)  returns 0x00 (0000ms, 0650ms total)
T0620 000:882 JLINK_WriteReg(R9, 0x20000200)  returns 0x00 (0000ms, 0650ms total)
T0620 000:882 JLINK_WriteReg(R10, 0x00000000)  returns 0x00 (0000ms, 0650ms total)
T0620 000:882 JLINK_WriteReg(R11, 0x00000000)  returns 0x00 (0000ms, 0650ms total)
T0620 000:882 JLINK_WriteReg(R12, 0x00000000)  returns 0x00 (0000ms, 0650ms total)
T0620 000:882 JLINK_WriteReg(R13 (SP), 0x20002000)  returns 0x00 (0000ms, 0650ms total)
T0620 000:882 JLINK_WriteReg(R14, 0x20000001)  returns 0x00 (0000ms, 0650ms total)
T0620 000:882 JLINK_WriteReg(R15 (PC), 0x20000100)  returns 0x00 (0000ms, 0650ms total)
T0620 000:882 JLINK_WriteReg(XPSR, 0x01000000)  returns 0x00 (0000ms, 0650ms total)
T0620 000:882 JLINK_WriteReg(MSP, 0x20002000)  returns 0x00 (0000ms, 0650ms total)
T0620 000:882 JLINK_WriteReg(PSP, 0x20002000)  returns 0x00 (0000ms, 0650ms total)
T0620 000:882 JLINK_WriteReg(CFBP, 0x00000000)  returns 0x00 (0000ms, 0650ms total)
T0620 000:882 JLINK_SetBPEx(Addr = 0x20000000, Type = 0xFFFFFFF2)  returns 0x00000009 (0000ms, 0650ms total)
T0620 000:882 JLINK_Go() (0003ms, 0653ms total)
T0620 000:885 JLINK_IsHalted()  returns FALSE (0001ms, 0654ms total)
T0620 000:888 JLINK_IsHalted()  returns FALSE (0000ms, 0653ms total)
T0620 000:891 JLINK_IsHalted()  returns FALSE (0000ms, 0653ms total)
T0620 000:893 JLINK_IsHalted()  returns FALSE (0000ms, 0653ms total)
T0620 000:895 JLINK_IsHalted()  returns FALSE (0000ms, 0653ms total)
T0620 000:897 JLINK_IsHalted()  returns FALSE (0001ms, 0654ms total)
T0620 000:900 JLINK_IsHalted()  returns FALSE (0001ms, 0654ms total)
T0620 000:903 JLINK_IsHalted()  returns FALSE (0001ms, 0654ms total)
T0620 000:906 JLINK_IsHalted() -- CPU_ReadMem(2 bytes @ 0x20000000)  returns TRUE (0005ms, 0658ms total)
T0620 000:911 JLINK_ReadReg(R15 (PC))  returns 0x20000000 (0000ms, 0653ms total)
T0620 000:911 JLINK_ClrBPEx(BPHandle = 0x00000009)  returns 0x00 (0000ms, 0653ms total)
T0620 000:911 JLINK_ReadReg(R0)  returns 0x00000000 (0000ms, 0653ms total)
T0620 000:911 JLINK_WriteReg(R0, 0x08002000)  returns 0x00 (0000ms, 0653ms total)
T0620 000:911 JLINK_WriteReg(R1, 0x00000800)  returns 0x00 (0000ms, 0653ms total)
T0620 000:911 JLINK_WriteReg(R2, 0x000000FF)  returns 0x00 (0002ms, 0655ms total)
T0620 000:913 JLINK_WriteReg(R3, 0x00000000)  returns 0x00 (0000ms, 0655ms total)
T0620 000:913 JLINK_WriteReg(R4, 0x00000000)  returns 0x00 (0000ms, 0655ms total)
T0620 000:913 JLINK_WriteReg(R5, 0x00000000)  returns 0x00 (0000ms, 0655ms total)
T0620 000:913 JLINK_WriteReg(R6, 0x00000000)  returns 0x00 (0000ms, 0655ms total)
T0620 000:913 JLINK_WriteReg(R7, 0x00000000)  returns 0x00 (0000ms, 0655ms total)
T0620 000:913 JLINK_WriteReg(R8, 0x00000000)  returns 0x00 (0000ms, 0655ms total)
T0620 000:913 JLINK_WriteReg(R9, 0x20000200)  returns 0x00 (0000ms, 0655ms total)
T0620 000:913 JLINK_WriteReg(R10, 0x00000000)  returns 0x00 (0000ms, 0655ms total)
T0620 000:913 JLINK_WriteReg(R11, 0x00000000)  returns 0x00 (0000ms, 0655ms total)
T0620 000:913 JLINK_WriteReg(R12, 0x00000000)  returns 0x00 (0000ms, 0655ms total)
T0620 000:913 JLINK_WriteReg(R13 (SP), 0x20002000)  returns 0x00 (0000ms, 0655ms total)
T0620 000:913 JLINK_WriteReg(R14, 0x20000001)  returns 0x00 (0000ms, 0655ms total)
T0620 000:913 JLINK_WriteReg(R15 (PC), 0x200000C8)  returns 0x00 (0000ms, 0655ms total)
T0620 000:913 JLINK_WriteReg(XPSR, 0x01000000)  returns 0x00 (0000ms, 0655ms total)
T0620 000:913 JLINK_WriteReg(MSP, 0x20002000)  returns 0x00 (0000ms, 0655ms total)
T0620 000:913 JLINK_WriteReg(PSP, 0x20002000)  returns 0x00 (0000ms, 0655ms total)
T0620 000:913 JLINK_WriteReg(CFBP, 0x00000000)  returns 0x00 (0000ms, 0655ms total)
T0620 000:913 JLINK_SetBPEx(Addr = 0x20000000, Type = 0xFFFFFFF2)  returns 0x0000000A (0000ms, 0655ms total)
T0620 000:913 JLINK_Go() (0003ms, 0658ms total)
T0620 000:916 JLINK_IsHalted() -- CPU_ReadMem(2 bytes @ 0x20000000)  returns TRUE (0004ms, 0662ms total)
T0620 000:921 JLINK_ReadReg(R15 (PC))  returns 0x20000000 (0000ms, 0658ms total)
T0620 000:921 JLINK_ClrBPEx(BPHandle = 0x0000000A)  returns 0x00 (0000ms, 0658ms total)
T0620 000:921 JLINK_ReadReg(R0)  returns 0x00000001 (0000ms, 0658ms total)
T0620 000:921 JLINK_WriteReg(R0, 0x08002000)  returns 0x00 (0000ms, 0658ms total)
T0620 000:921 JLINK_WriteReg(R1, 0x00000800)  returns 0x00 (0000ms, 0658ms total)
T0620 000:921 JLINK_WriteReg(R2, 0x000000FF)  returns 0x00 (0000ms, 0658ms total)
T0620 000:921 JLINK_WriteReg(R3, 0x00000000)  returns 0x00 (0000ms, 0658ms total)
T0620 000:921 JLINK_WriteReg(R4, 0x00000000)  returns 0x00 (0000ms, 0658ms total)
T0620 000:921 JLINK_WriteReg(R5, 0x00000000)  returns 0x00 (0000ms, 0658ms total)
T0620 000:921 JLINK_WriteReg(R6, 0x00000000)  returns 0x00 (0000ms, 0658ms total)
T0620 000:921 JLINK_WriteReg(R7, 0x00000000)  returns 0x00 (0000ms, 0658ms total)
T0620 000:921 JLINK_WriteReg(R8, 0x00000000)  returns 0x00 (0000ms, 0658ms total)
T0620 000:921 JLINK_WriteReg(R9, 0x20000200)  returns 0x00 (0000ms, 0658ms total)
T0620 000:921 JLINK_WriteReg(R10, 0x00000000)  returns 0x00 (0000ms, 0658ms total)
T0620 000:921 JLINK_WriteReg(R11, 0x00000000)  returns 0x00 (0000ms, 0658ms total)
T0620 000:921 JLINK_WriteReg(R12, 0x00000000)  returns 0x00 (0001ms, 0659ms total)
T0620 000:922 JLINK_WriteReg(R13 (SP), 0x20002000)  returns 0x00 (0000ms, 0659ms total)
T0620 000:922 JLINK_WriteReg(R14, 0x20000001)  returns 0x00 (0000ms, 0659ms total)
T0620 000:922 JLINK_WriteReg(R15 (PC), 0x20000100)  returns 0x00 (0000ms, 0659ms total)
T0620 000:922 JLINK_WriteReg(XPSR, 0x01000000)  returns 0x00 (0000ms, 0659ms total)
T0620 000:922 JLINK_WriteReg(MSP, 0x20002000)  returns 0x00 (0000ms, 0659ms total)
T0620 000:922 JLINK_WriteReg(PSP, 0x20002000)  returns 0x00 (0000ms, 0659ms total)
T0620 000:922 JLINK_WriteReg(CFBP, 0x00000000)  returns 0x00 (0000ms, 0659ms total)
T0620 000:922 JLINK_SetBPEx(Addr = 0x20000000, Type = 0xFFFFFFF2)  returns 0x0000000B (0000ms, 0659ms total)
T0620 000:922 JLINK_Go() (0003ms, 0662ms total)
T0620 000:925 JLINK_IsHalted()  returns FALSE (0001ms, 0663ms total)
T0620 000:935 JLINK_IsHalted()  returns FALSE (0001ms, 0663ms total)
T0620 000:938 JLINK_IsHalted()  returns FALSE (0001ms, 0663ms total)
T0620 000:940 JLINK_IsHalted()  returns FALSE (0001ms, 0663ms total)
T0620 000:949 JLINK_IsHalted() -- CPU_ReadMem(2 bytes @ 0x20000000)  returns TRUE (0004ms, 0666ms total)
T0620 000:953 JLINK_ReadReg(R15 (PC))  returns 0x20000000 (0000ms, 0662ms total)
T0620 000:953 JLINK_ClrBPEx(BPHandle = 0x0000000B)  returns 0x00 (0000ms, 0662ms total)
T0620 000:953 JLINK_ReadReg(R0)  returns 0x00000000 (0000ms, 0662ms total)
T0620 000:953 JLINK_WriteReg(R0, 0x08002800)  returns 0x00 (0000ms, 0662ms total)
T0620 000:953 JLINK_WriteReg(R1, 0x00000800)  returns 0x00 (0000ms, 0662ms total)
T0620 000:953 JLINK_WriteReg(R2, 0x000000FF)  returns 0x00 (0000ms, 0662ms total)
T0620 000:953 JLINK_WriteReg(R3, 0x00000000)  returns 0x00 (0001ms, 0663ms total)
T0620 000:954 JLINK_WriteReg(R4, 0x00000000)  returns 0x00 (0000ms, 0663ms total)
T0620 000:954 JLINK_WriteReg(R5, 0x00000000)  returns 0x00 (0000ms, 0663ms total)
T0620 000:954 JLINK_WriteReg(R6, 0x00000000)  returns 0x00 (0000ms, 0663ms total)
T0620 000:954 JLINK_WriteReg(R7, 0x00000000)  returns 0x00 (0000ms, 0663ms total)
T0620 000:954 JLINK_WriteReg(R8, 0x00000000)  returns 0x00 (0000ms, 0663ms total)
T0620 000:954 JLINK_WriteReg(R9, 0x20000200)  returns 0x00 (0000ms, 0663ms total)
T0620 000:954 JLINK_WriteReg(R10, 0x00000000)  returns 0x00 (0000ms, 0663ms total)
T0620 000:954 JLINK_WriteReg(R11, 0x00000000)  returns 0x00 (0000ms, 0663ms total)
T0620 000:954 JLINK_WriteReg(R12, 0x00000000)  returns 0x00 (0000ms, 0663ms total)
T0620 000:954 JLINK_WriteReg(R13 (SP), 0x20002000)  returns 0x00 (0000ms, 0663ms total)
T0620 000:954 JLINK_WriteReg(R14, 0x20000001)  returns 0x00 (0000ms, 0663ms total)
T0620 000:954 JLINK_WriteReg(R15 (PC), 0x200000C8)  returns 0x00 (0000ms, 0663ms total)
T0620 000:954 JLINK_WriteReg(XPSR, 0x01000000)  returns 0x00 (0000ms, 0663ms total)
T0620 000:954 JLINK_WriteReg(MSP, 0x20002000)  returns 0x00 (0000ms, 0663ms total)
T0620 000:954 JLINK_WriteReg(PSP, 0x20002000)  returns 0x00 (0000ms, 0663ms total)
T0620 000:954 JLINK_WriteReg(CFBP, 0x00000000)  returns 0x00 (0000ms, 0663ms total)
T0620 000:954 JLINK_SetBPEx(Addr = 0x20000000, Type = 0xFFFFFFF2)  returns 0x0000000C (0000ms, 0663ms total)
T0620 000:954 JLINK_Go() (0003ms, 0666ms total)
T0620 000:957 JLINK_IsHalted() -- CPU_ReadMem(2 bytes @ 0x20000000)  returns TRUE (0005ms, 0671ms total)
T0620 000:962 JLINK_ReadReg(R15 (PC))  returns 0x20000000 (0000ms, 0666ms total)
T0620 000:962 JLINK_ClrBPEx(BPHandle = 0x0000000C)  returns 0x00 (0000ms, 0666ms total)
T0620 000:962 JLINK_ReadReg(R0)  returns 0x00000001 (0000ms, 0666ms total)
T0620 000:962 JLINK_WriteReg(R0, 0x08002800)  returns 0x00 (0000ms, 0666ms total)
T0620 000:962 JLINK_WriteReg(R1, 0x00000800)  returns 0x00 (0000ms, 0666ms total)
T0620 000:962 JLINK_WriteReg(R2, 0x000000FF)  returns 0x00 (0000ms, 0666ms total)
T0620 000:962 JLINK_WriteReg(R3, 0x00000000)  returns 0x00 (0000ms, 0666ms total)
T0620 000:962 JLINK_WriteReg(R4, 0x00000000)  returns 0x00 (0000ms, 0666ms total)
T0620 000:962 JLINK_WriteReg(R5, 0x00000000)  returns 0x00 (0000ms, 0666ms total)
T0620 000:962 JLINK_WriteReg(R6, 0x00000000)  returns 0x00 (0000ms, 0666ms total)
T0620 000:962 JLINK_WriteReg(R7, 0x00000000)  returns 0x00 (0000ms, 0666ms total)
T0620 000:962 JLINK_WriteReg(R8, 0x00000000)  returns 0x00 (0000ms, 0666ms total)
T0620 000:962 JLINK_WriteReg(R9, 0x20000200)  returns 0x00 (0000ms, 0666ms total)
T0620 000:962 JLINK_WriteReg(R10, 0x00000000)  returns 0x00 (0000ms, 0666ms total)
T0620 000:962 JLINK_WriteReg(R11, 0x00000000)  returns 0x00 (0000ms, 0666ms total)
T0620 000:962 JLINK_WriteReg(R12, 0x00000000)  returns 0x00 (0000ms, 0666ms total)
T0620 000:962 JLINK_WriteReg(R13 (SP), 0x20002000)  returns 0x00 (0000ms, 0666ms total)
T0620 000:962 JLINK_WriteReg(R14, 0x20000001)  returns 0x00 (0000ms, 0666ms total)
T0620 000:962 JLINK_WriteReg(R15 (PC), 0x20000100)  returns 0x00 (0000ms, 0666ms total)
T0620 000:962 JLINK_WriteReg(XPSR, 0x01000000)  returns 0x00 (0000ms, 0666ms total)
T0620 000:962 JLINK_WriteReg(MSP, 0x20002000)  returns 0x00 (0000ms, 0666ms total)
T0620 000:962 JLINK_WriteReg(PSP, 0x20002000)  returns 0x00 (0000ms, 0666ms total)
T0620 000:962 JLINK_WriteReg(CFBP, 0x00000000)  returns 0x00 (0000ms, 0666ms total)
T0620 000:962 JLINK_SetBPEx(Addr = 0x20000000, Type = 0xFFFFFFF2)  returns 0x0000000D (0000ms, 0666ms total)
T0620 000:962 JLINK_Go() (0003ms, 0669ms total)
T0620 000:965 JLINK_IsHalted()  returns FALSE (0001ms, 0670ms total)
T0620 000:968 JLINK_IsHalted()  returns FALSE (0001ms, 0670ms total)
T0620 000:971 JLINK_IsHalted()  returns FALSE (0000ms, 0669ms total)
T0620 000:973 JLINK_IsHalted()  returns FALSE (0001ms, 0670ms total)
T0620 000:976 JLINK_IsHalted()  returns FALSE (0001ms, 0670ms total)
T0620 000:979 JLINK_IsHalted()  returns FALSE (0001ms, 0670ms total)
T0620 000:982 JLINK_IsHalted()  returns FALSE (0001ms, 0670ms total)
T0620 000:985 JLINK_IsHalted()  returns FALSE (0001ms, 0670ms total)
T0620 000:988 JLINK_IsHalted() -- CPU_ReadMem(2 bytes @ 0x20000000)  returns TRUE (0005ms, 0674ms total)
T0620 000:993 JLINK_ReadReg(R15 (PC))  returns 0x20000000 (0000ms, 0669ms total)
T0620 000:993 JLINK_ClrBPEx(BPHandle = 0x0000000D)  returns 0x00 (0000ms, 0669ms total)
T0620 000:993 JLINK_ReadReg(R0)  returns 0x00000000 (0000ms, 0669ms total)
T0620 000:994 JLINK_WriteReg(R0, 0x00000001)  returns 0x00 (0000ms, 0669ms total)
T0620 000:994 JLINK_WriteReg(R1, 0x00000800)  returns 0x00 (0000ms, 0669ms total)
T0620 000:994 JLINK_WriteReg(R2, 0x000000FF)  returns 0x00 (0000ms, 0669ms total)
T0620 000:994 JLINK_WriteReg(R3, 0x00000000)  returns 0x00 (0000ms, 0669ms total)
T0620 000:994 JLINK_WriteReg(R4, 0x00000000)  returns 0x00 (0000ms, 0669ms total)
T0620 000:994 JLINK_WriteReg(R5, 0x00000000)  returns 0x00 (0000ms, 0669ms total)
T0620 000:994 JLINK_WriteReg(R6, 0x00000000)  returns 0x00 (0000ms, 0669ms total)
T0620 000:994 JLINK_WriteReg(R7, 0x00000000)  returns 0x00 (0000ms, 0669ms total)
T0620 000:994 JLINK_WriteReg(R8, 0x00000000)  returns 0x00 (0000ms, 0669ms total)
T0620 000:994 JLINK_WriteReg(R9, 0x20000200)  returns 0x00 (0000ms, 0669ms total)
T0620 000:994 JLINK_WriteReg(R10, 0x00000000)  returns 0x00 (0000ms, 0669ms total)
T0620 000:994 JLINK_WriteReg(R11, 0x00000000)  returns 0x00 (0000ms, 0669ms total)
T0620 000:994 JLINK_WriteReg(R12, 0x00000000)  returns 0x00 (0000ms, 0669ms total)
T0620 000:994 JLINK_WriteReg(R13 (SP), 0x20002000)  returns 0x00 (0000ms, 0669ms total)
T0620 000:994 JLINK_WriteReg(R14, 0x20000001)  returns 0x00 (0000ms, 0669ms total)
T0620 000:995 JLINK_WriteReg(R15 (PC), 0x2000009E)  returns 0x00 (0000ms, 0669ms total)
T0620 000:995 JLINK_WriteReg(XPSR, 0x01000000)  returns 0x00 (0000ms, 0669ms total)
T0620 000:995 JLINK_WriteReg(MSP, 0x20002000)  returns 0x00 (0000ms, 0669ms total)
T0620 000:995 JLINK_WriteReg(PSP, 0x20002000)  returns 0x00 (0000ms, 0669ms total)
T0620 000:995 JLINK_WriteReg(CFBP, 0x00000000)  returns 0x00 (0000ms, 0669ms total)
T0620 000:995 JLINK_SetBPEx(Addr = 0x20000000, Type = 0xFFFFFFF2)  returns 0x0000000E (0000ms, 0669ms total)
T0620 000:995 JLINK_Go() (0002ms, 0671ms total)
T0620 000:997 JLINK_IsHalted() -- CPU_ReadMem(2 bytes @ 0x20000000)  returns TRUE (0004ms, 0675ms total)
T0620 001:001 JLINK_ReadReg(R15 (PC))  returns 0x20000000 (0001ms, 0672ms total)
T0620 001:002 JLINK_ClrBPEx(BPHandle = 0x0000000E)  returns 0x00 (0000ms, 0672ms total)
T0620 001:002 JLINK_ReadReg(R0)  returns 0x00000000 (0000ms, 0672ms total)
T0620 001:064 JLINK_WriteMem(0x20000000, 0x0218 Bytes, ...) - Data: 00 BE 0A E0 0D 78 2D 06 68 40 08 24 40 00 00 D3 ... -- CPU_WriteMem(536 bytes @ 0x20000000)  returns 0x218 (0008ms, 0680ms total)
T0620 001:072 JLINK_WriteReg(R0, 0x08000000)  returns 0x00 (0000ms, 0680ms total)
T0620 001:072 JLINK_WriteReg(R1, 0x007A1200)  returns 0x00 (0000ms, 0680ms total)
T0620 001:072 JLINK_WriteReg(R2, 0x00000002)  returns 0x00 (0000ms, 0680ms total)
T0620 001:072 JLINK_WriteReg(R3, 0x00000000)  returns 0x00 (0000ms, 0680ms total)
T0620 001:072 JLINK_WriteReg(R4, 0x00000000)  returns 0x00 (0000ms, 0680ms total)
T0620 001:072 JLINK_WriteReg(R5, 0x00000000)  returns 0x00 (0000ms, 0680ms total)
T0620 001:072 JLINK_WriteReg(R6, 0x00000000)  returns 0x00 (0000ms, 0680ms total)
T0620 001:072 JLINK_WriteReg(R7, 0x00000000)  returns 0x00 (0000ms, 0680ms total)
T0620 001:072 JLINK_WriteReg(R8, 0x00000000)  returns 0x00 (0000ms, 0680ms total)
T0620 001:072 JLINK_WriteReg(R9, 0x20000200)  returns 0x00 (0000ms, 0680ms total)
T0620 001:072 JLINK_WriteReg(R10, 0x00000000)  returns 0x00 (0000ms, 0680ms total)
T0620 001:072 JLINK_WriteReg(R11, 0x00000000)  returns 0x00 (0000ms, 0680ms total)
T0620 001:072 JLINK_WriteReg(R12, 0x00000000)  returns 0x00 (0000ms, 0680ms total)
T0620 001:072 JLINK_WriteReg(R13 (SP), 0x20002000)  returns 0x00 (0000ms, 0680ms total)
T0620 001:072 JLINK_WriteReg(R14, 0x20000001)  returns 0x00 (0000ms, 0680ms total)
T0620 001:072 JLINK_WriteReg(R15 (PC), 0x20000020)  returns 0x00 (0000ms, 0680ms total)
T0620 001:072 JLINK_WriteReg(XPSR, 0x01000000)  returns 0x00 (0000ms, 0680ms total)
T0620 001:072 JLINK_WriteReg(MSP, 0x20002000)  returns 0x00 (0000ms, 0680ms total)
T0620 001:073 JLINK_WriteReg(PSP, 0x20002000)  returns 0x00 (0000ms, 0680ms total)
T0620 001:073 JLINK_WriteReg(CFBP, 0x00000000)  returns 0x00 (0000ms, 0680ms total)
T0620 001:073 JLINK_SetBPEx(Addr = 0x20000000, Type = 0xFFFFFFF2) -- CPU_ReadMem(4 bytes @ 0x20000000) -- CPU_WriteMem(4 bytes @ 0x20000000) -- CPU_ReadMem(4 bytes @ 0x20000000) -- CPU_WriteMem(4 bytes @ 0x20000000) -- CPU_ReadMem(2 bytes @ 0x20000000)  returns 0x0000000F (0004ms, 0684ms total)
T0620 001:077 JLINK_Go() -- CPU_WriteMem(2 bytes @ 0x20000000) (0003ms, 0687ms total)
T0620 001:080 JLINK_IsHalted() -- CPU_ReadMem(2 bytes @ 0x20000000)  returns TRUE (0005ms, 0692ms total)
T0620 001:085 JLINK_ReadReg(R15 (PC))  returns 0x20000000 (0000ms, 0687ms total)
T0620 001:085 JLINK_ClrBPEx(BPHandle = 0x0000000F)  returns 0x00 (0000ms, 0687ms total)
T0620 001:085 JLINK_ReadReg(R0)  returns 0x00000000 (0000ms, 0687ms total)
T0620 001:085 JLINK_WriteMem(0x20000218, 0x01E8 Bytes, ...) - Data: 90 07 00 20 6D 01 00 08 41 24 00 08 3F 1F 00 08 ... -- CPU_WriteMem(488 bytes @ 0x20000218)  returns 0x1E8 (0007ms, 0694ms total)
T0620 001:092 JLINK_WriteMem(0x20000400, 0x0218 Bytes, ...) - Data: 8B 42 2C D3 03 0A 8B 42 11 D3 00 23 9C 46 4E E0 ... -- CPU_WriteMem(536 bytes @ 0x20000400)  returns 0x218 (0007ms, 0701ms total)
T0620 001:099 JLINK_WriteReg(R0, 0x08000000)  returns 0x00 (0000ms, 0701ms total)
T0620 001:099 JLINK_WriteReg(R1, 0x00000400)  returns 0x00 (0000ms, 0701ms total)
T0620 001:099 JLINK_WriteReg(R2, 0x20000218)  returns 0x00 (0000ms, 0701ms total)
T0620 001:099 JLINK_WriteReg(R3, 0x00000000)  returns 0x00 (0000ms, 0701ms total)
T0620 001:099 JLINK_WriteReg(R4, 0x00000000)  returns 0x00 (0000ms, 0701ms total)
T0620 001:099 JLINK_WriteReg(R5, 0x00000000)  returns 0x00 (0000ms, 0701ms total)
T0620 001:099 JLINK_WriteReg(R6, 0x00000000)  returns 0x00 (0000ms, 0701ms total)
T0620 001:099 JLINK_WriteReg(R7, 0x00000000)  returns 0x00 (0000ms, 0701ms total)
T0620 001:099 JLINK_WriteReg(R8, 0x00000000)  returns 0x00 (0000ms, 0701ms total)
T0620 001:099 JLINK_WriteReg(R9, 0x20000200)  returns 0x00 (0000ms, 0701ms total)
T0620 001:099 JLINK_WriteReg(R10, 0x00000000)  returns 0x00 (0000ms, 0701ms total)
T0620 001:099 JLINK_WriteReg(R11, 0x00000000)  returns 0x00 (0000ms, 0701ms total)
T0620 001:099 JLINK_WriteReg(R12, 0x00000000)  returns 0x00 (0001ms, 0702ms total)
T0620 001:100 JLINK_WriteReg(R13 (SP), 0x20002000)  returns 0x00 (0000ms, 0702ms total)
T0620 001:100 JLINK_WriteReg(R14, 0x20000001)  returns 0x00 (0000ms, 0702ms total)
T0620 001:100 JLINK_WriteReg(R15 (PC), 0x2000017E)  returns 0x00 (0000ms, 0702ms total)
T0620 001:100 JLINK_WriteReg(XPSR, 0x01000000)  returns 0x00 (0000ms, 0702ms total)
T0620 001:100 JLINK_WriteReg(MSP, 0x20002000)  returns 0x00 (0000ms, 0702ms total)
T0620 001:100 JLINK_WriteReg(PSP, 0x20002000)  returns 0x00 (0000ms, 0702ms total)
T0620 001:100 JLINK_WriteReg(CFBP, 0x00000000)  returns 0x00 (0000ms, 0702ms total)
T0620 001:100 JLINK_SetBPEx(Addr = 0x20000000, Type = 0xFFFFFFF2)  returns 0x00000010 (0000ms, 0702ms total)
T0620 001:100 JLINK_Go() (0004ms, 0706ms total)
T0620 001:104 JLINK_IsHalted()  returns FALSE (0000ms, 0706ms total)
T0620 001:123 JLINK_IsHalted() -- CPU_ReadMem(2 bytes @ 0x20000000)  returns TRUE (0004ms, 0710ms total)
T0620 001:127 JLINK_ReadReg(R15 (PC))  returns 0x20000000 (0000ms, 0706ms total)
T0620 001:127 JLINK_ClrBPEx(BPHandle = 0x00000010)  returns 0x00 (0000ms, 0706ms total)
T0620 001:127 JLINK_ReadReg(R0)  returns 0x00000000 (0000ms, 0706ms total)
T0620 001:128 JLINK_WriteMem(0x20000218, 0x01E8 Bytes, ...) - Data: 89 04 8A 42 09 D3 00 2A 08 DC 11 06 09 0F 04 D0 ... -- CPU_WriteMem(488 bytes @ 0x20000218)  returns 0x1E8 (0007ms, 0713ms total)
T0620 001:135 JLINK_WriteMem(0x20000400, 0x0218 Bytes, ...) - Data: 40 07 E8 D4 00 20 70 BD E8 FF FF 7F F8 B5 04 46 ... -- CPU_WriteMem(536 bytes @ 0x20000400)  returns 0x218 (0008ms, 0721ms total)
T0620 001:143 JLINK_WriteReg(R0, 0x08000400)  returns 0x00 (0000ms, 0721ms total)
T0620 001:143 JLINK_WriteReg(R1, 0x00000400)  returns 0x00 (0000ms, 0721ms total)
T0620 001:143 JLINK_WriteReg(R2, 0x20000218)  returns 0x00 (0000ms, 0721ms total)
T0620 001:143 JLINK_WriteReg(R3, 0x00000000)  returns 0x00 (0000ms, 0721ms total)
T0620 001:143 JLINK_WriteReg(R4, 0x00000000)  returns 0x00 (0000ms, 0721ms total)
T0620 001:143 JLINK_WriteReg(R5, 0x00000000)  returns 0x00 (0000ms, 0721ms total)
T0620 001:143 JLINK_WriteReg(R6, 0x00000000)  returns 0x00 (0000ms, 0721ms total)
T0620 001:143 JLINK_WriteReg(R7, 0x00000000)  returns 0x00 (0000ms, 0721ms total)
T0620 001:143 JLINK_WriteReg(R8, 0x00000000)  returns 0x00 (0000ms, 0721ms total)
T0620 001:143 JLINK_WriteReg(R9, 0x20000200)  returns 0x00 (0000ms, 0721ms total)
T0620 001:143 JLINK_WriteReg(R10, 0x00000000)  returns 0x00 (0000ms, 0721ms total)
T0620 001:143 JLINK_WriteReg(R11, 0x00000000)  returns 0x00 (0000ms, 0721ms total)
T0620 001:143 JLINK_WriteReg(R12, 0x00000000)  returns 0x00 (0000ms, 0721ms total)
T0620 001:143 JLINK_WriteReg(R13 (SP), 0x20002000)  returns 0x00 (0000ms, 0721ms total)
T0620 001:143 JLINK_WriteReg(R14, 0x20000001)  returns 0x00 (0000ms, 0721ms total)
T0620 001:143 JLINK_WriteReg(R15 (PC), 0x2000017E)  returns 0x00 (0000ms, 0721ms total)
T0620 001:143 JLINK_WriteReg(XPSR, 0x01000000)  returns 0x00 (0000ms, 0721ms total)
T0620 001:143 JLINK_WriteReg(MSP, 0x20002000)  returns 0x00 (0000ms, 0721ms total)
T0620 001:143 JLINK_WriteReg(PSP, 0x20002000)  returns 0x00 (0000ms, 0721ms total)
T0620 001:143 JLINK_WriteReg(CFBP, 0x00000000)  returns 0x00 (0000ms, 0721ms total)
T0620 001:143 JLINK_SetBPEx(Addr = 0x20000000, Type = 0xFFFFFFF2)  returns 0x00000011 (0000ms, 0721ms total)
T0620 001:143 JLINK_Go() (0003ms, 0724ms total)
T0620 001:146 JLINK_IsHalted()  returns FALSE (0001ms, 0725ms total)
T0620 001:154 JLINK_IsHalted()  returns FALSE (0000ms, 0724ms total)
T0620 001:157 JLINK_IsHalted() -- CPU_ReadMem(2 bytes @ 0x20000000)  returns TRUE (0004ms, 0728ms total)
T0620 001:161 JLINK_ReadReg(R15 (PC))  returns 0x20000000 (0000ms, 0724ms total)
T0620 001:161 JLINK_ClrBPEx(BPHandle = 0x00000011)  returns 0x00 (0000ms, 0724ms total)
T0620 001:161 JLINK_ReadReg(R0)  returns 0x00000000 (0000ms, 0724ms total)
T0620 001:162 JLINK_WriteMem(0x20000218, 0x01E8 Bytes, ...) - Data: 01 D5 04 20 38 E0 83 06 01 D5 05 20 34 E0 43 06 ... -- CPU_WriteMem(488 bytes @ 0x20000218)  returns 0x1E8 (0006ms, 0730ms total)
T0620 001:168 JLINK_WriteMem(0x20000400, 0x0218 Bytes, ...) - Data: 40 00 80 1C 00 E0 40 1E 00 90 00 28 FB D1 20 68 ... -- CPU_WriteMem(536 bytes @ 0x20000400)  returns 0x218 (0008ms, 0738ms total)
T0620 001:176 JLINK_WriteReg(R0, 0x08000800)  returns 0x00 (0000ms, 0738ms total)
T0620 001:176 JLINK_WriteReg(R1, 0x00000400)  returns 0x00 (0000ms, 0738ms total)
T0620 001:176 JLINK_WriteReg(R2, 0x20000218)  returns 0x00 (0000ms, 0738ms total)
T0620 001:176 JLINK_WriteReg(R3, 0x00000000)  returns 0x00 (0000ms, 0738ms total)
T0620 001:176 JLINK_WriteReg(R4, 0x00000000)  returns 0x00 (0000ms, 0738ms total)
T0620 001:176 JLINK_WriteReg(R5, 0x00000000)  returns 0x00 (0000ms, 0738ms total)
T0620 001:176 JLINK_WriteReg(R6, 0x00000000)  returns 0x00 (0000ms, 0738ms total)
T0620 001:176 JLINK_WriteReg(R7, 0x00000000)  returns 0x00 (0000ms, 0738ms total)
T0620 001:176 JLINK_WriteReg(R8, 0x00000000)  returns 0x00 (0000ms, 0738ms total)
T0620 001:176 JLINK_WriteReg(R9, 0x20000200)  returns 0x00 (0000ms, 0738ms total)
T0620 001:176 JLINK_WriteReg(R10, 0x00000000)  returns 0x00 (0000ms, 0738ms total)
T0620 001:176 JLINK_WriteReg(R11, 0x00000000)  returns 0x00 (0000ms, 0738ms total)
T0620 001:176 JLINK_WriteReg(R12, 0x00000000)  returns 0x00 (0000ms, 0738ms total)
T0620 001:176 JLINK_WriteReg(R13 (SP), 0x20002000)  returns 0x00 (0001ms, 0739ms total)
